
T157C 000:285 SEGGER J-Link V5.12f Log File (0000ms, 0266ms total)
T157C 000:285 DLL Compiled: May 17 2016 16:03:35 (0000ms, 0266ms total)
T157C 000:285 Logging started @ 2018-05-18 17:28 (0000ms, 0266ms total)
T157C 000:285 JLINK_SetWarnOutHandler(...) (0000ms, 0266ms total)
T157C 000:285 JLINK_OpenEx(...)
Firmware: J-Link OB-SAM3U128-V2-NordicSemi compiled Jul 24 2017 17:30:12
Hardware: V1.00
S/N: 682180644  returns O.K. (0259ms, 0525ms total)
T157C 000:544 JLINK_SetErrorOutHandler(...) (0000ms, 0525ms total)
T157C 000:544 JLINK_ExecCommand("ProjectFile = "D:\BT\nordic\nRF5_SDK_15.0.0_a53641a\examples\ble_central\ble_app_uart_c\pca10040\s132\arm5_no_packs\JLinkSettings.ini"", ...)  returns 0x00 (0001ms, 0526ms total)
T157C 000:553 JLINK_ExecCommand("Device = nRF52832_xxAA", ...)Device "NRF52832_XXAA" selected.  returns 0x00 (0011ms, 0537ms total)
T157C 000:564 JLINK_ExecCommand("DisableConnectionTimeout", ...)  returns 0x01 (0000ms, 0537ms total)
T157C 000:564 JLINK_GetHardwareVersion()  returns 0x2710 (0000ms, 0537ms total)
T157C 000:564 JLINK_GetDLLVersion()  returns 51206 (0000ms, 0537ms total)
T157C 000:564 JLINK_GetFirmwareString(...) (0000ms, 0537ms total)
T157C 000:580 JLINK_GetDLLVersion()  returns 51206 (0000ms, 0537ms total)
T157C 000:580 JLINK_GetCompileDateTime() (0000ms, 0537ms total)
T157C 000:585 JLINK_GetFirmwareString(...) (0000ms, 0537ms total)
T157C 000:590 JLINK_GetHardwareVersion()  returns 0x2710 (0000ms, 0537ms total)
T157C 000:602 JLINK_TIF_Select(JLINKARM_TIF_SWD)  returns 0x00 (0001ms, 0538ms total)
T157C 000:603 JLINK_SetSpeed(5000) (0000ms, 0538ms total)
T157C 000:603 JLINK_GetId() >0x108 TIF>Found SWD-DP with ID 0x2BA01477 >0x0D TIF> >0x28 TIF> >0x0D TIF> >0x28 TIF> >0x0D TIF> >0x28 TIF> >0x0D TIF> >0x28 TIF> >0x35 TIF> >0x0D TIF> >0x28 TIF> >0x0D TIF> >0x28 TIF> >0x35 TIF> >0x35 TIF> >0x35 TIF> >0x0D TIF> >0x28 TIF> >0x0D TIF> >0x28 TIF> >0x0D TIF> >0x28 TIF> >0x35 TIF> >0x35 TIF> >0x0D TIF> >0x28 TIF> >0x35 TIF> >0x35 TIF>Found Cortex-M4 r0p1, Little endian. -- CPU_ReadMem(4 bytes @ 0xE000EDF0) -- CPU_WriteMem(4 bytes @ 0xE000EDF0)
 -- CPU_ReadMem(4 bytes @ 0xE0002000)FPUnit: 6 code (BP) slots and 2 literal slots -- CPU_ReadMem(4 bytes @ 0xE000EDFC) -- CPU_WriteMem(4 bytes @ 0xE000EDFC) -- CPU_ReadMem(4 bytes @ 0xE0001000) -- CPU_WriteMem(4 bytes @ 0xE0001000) -- CPU_ReadMem(4 bytes @ 0xE000ED88) -- CPU_WriteMem(4 bytes @ 0xE000ED88) -- CPU_ReadMem(4 bytes @ 0xE000ED88) -- CPU_WriteMem(4 bytes @ 0xE000ED88)CoreSight components:ROMTbl 0 @ E00FF000 -- CPU_ReadMem(16 bytes @ 0xE00FF000) -- CPU_ReadMem(16 bytes @ 0xE000EFF0)
 -- CPU_ReadMem(16 bytes @ 0xE000EFE0)ROMTbl 0 [0]: FFF0F000, CID: B105E00D, PID: 000BB00C SCS -- CPU_ReadMem(16 bytes @ 0xE0001FF0) -- CPU_ReadMem(16 bytes @ 0xE0001FE0)ROMTbl 0 [1]: FFF02000, CID: B105E00D, PID: 003BB002 DWT -- CPU_ReadMem(16 bytes @ 0xE0002FF0) -- CPU_ReadMem(16 bytes @ 0xE0002FE0)ROMTbl 0 [2]: FFF03000, CID: B105E00D, PID: 002BB003 FPB -- CPU_ReadMem(16 bytes @ 0xE0000FF0) -- CPU_ReadMem(16 bytes @ 0xE0000FE0)ROMTbl 0 [3]: FFF01000, CID: B105E00D, PID: 003BB001 ITM
 -- CPU_ReadMem(16 bytes @ 0xE00FF010) -- CPU_ReadMem(16 bytes @ 0xE0040FF0) -- CPU_ReadMem(16 bytes @ 0xE0040FE0)ROMTbl 0 [4]: FFF41000, CID: B105900D, PID: 000BB9A1 TPIU -- CPU_ReadMem(16 bytes @ 0xE0041FF0) -- CPU_ReadMem(16 bytes @ 0xE0041FE0)ROMTbl 0 [5]: FFF42000, CID: B105900D, PID: 000BB925 ETM >0x35 TIF>  returns 0x2BA01477 (0077ms, 0615ms total)
T157C 000:680 JLINK_GetDLLVersion()  returns 51206 (0000ms, 0615ms total)
T157C 000:680 JLINK_CORE_GetFound()  returns 0xE0000FF (0001ms, 0616ms total)
T157C 000:681 JLINK_GetDebugInfo(0x100) -- Value=0xE00FF000  returns 0x00 (0000ms, 0616ms total)
T157C 000:686 JLINK_GetDebugInfo(0x100) -- Value=0xE00FF000  returns 0x00 (0000ms, 0616ms total)
T157C 000:686 JLINK_GetDebugInfo(0x101) -- Value=0xE0041000  returns 0x00 (0000ms, 0616ms total)
T157C 000:686 JLINK_GetDebugInfo(0x102) -- Value=0x00000000  returns 0x00 (0000ms, 0616ms total)
T157C 000:686 JLINK_GetDebugInfo(0x103) -- Value=0xE0040000  returns 0x00 (0000ms, 0616ms total)
T157C 000:687 JLINK_GetDebugInfo(0x104) -- Value=0xE0000000  returns 0x00 (0000ms, 0617ms total)
T157C 000:687 JLINK_GetDebugInfo(0x105) -- Value=0xE0001000  returns 0x00 (0000ms, 0617ms total)
T157C 000:687 JLINK_GetDebugInfo(0x106) -- Value=0xE0002000  returns 0x00 (0000ms, 0617ms total)
T157C 000:687 JLINK_GetDebugInfo(0x107) -- Value=0xE000E000  returns 0x00 (0000ms, 0617ms total)
T157C 000:687 JLINK_GetDebugInfo(0x10C) -- Value=0xE000EDF0  returns 0x00 (0000ms, 0617ms total)
T157C 000:687 JLINK_ReadMemU32(0xE000EF40, 0x0001 Items, ...) -- CPU is running -- CPU_ReadMem(4 bytes @ 0xE000EF40) - Data: 21 00 11 10  returns 0x01 (0001ms, 0618ms total)
T157C 000:688 JLINK_ReadMemU32(0xE000EF44, 0x0001 Items, ...) -- CPU is running -- CPU_ReadMem(4 bytes @ 0xE000EF44) - Data: 11 00 00 11  returns 0x01 (0000ms, 0618ms total)
T157C 000:688 JLINK_ReadMemU32(0xE000ED00, 0x0001 Items, ...) -- CPU is running -- CPU_ReadMem(4 bytes @ 0xE000ED00) - Data: 41 C2 0F 41  returns 0x01 (0001ms, 0619ms total)
T157C 000:689 JLINK_SetResetType(JLINKARM_RESET_TYPE_NORMAL)  returns JLINKARM_RESET_TYPE_NORMAL (0000ms, 0619ms total)
T157C 000:689 JLINK_Reset() -- CPU is running -- CPU_WriteMem(4 bytes @ 0xE000EDF0) -- CPU is running -- CPU_WriteMem(4 bytes @ 0xE000EDFC) >0x35 TIF> -- CPU is running -- CPU_WriteMem(4 bytes @ 0xE000ED0C) -- CPU is running -- CPU_ReadMem(4 bytes @ 0xE000EDF0) -- CPU is running -- CPU_ReadMem(4 bytes @ 0xE000EDF0) -- CPU is running -- CPU_WriteMem(4 bytes @ 0xE000EDF0) -- CPU is running -- CPU_WriteMem(4 bytes @ 0xE000EDFC) -- CPU is running -- CPU_ReadMem(4 bytes @ 0xE000EDF0)
 -- CPU_WriteMem(4 bytes @ 0xE0002000) -- CPU_ReadMem(4 bytes @ 0xE000EDFC) -- CPU_ReadMem(4 bytes @ 0xE0001000) (0022ms, 0641ms total)
T157C 000:711 JLINK_Halt()  returns 0x00 (0000ms, 0641ms total)
T157C 000:711 JLINK_IsHalted()  returns TRUE (0000ms, 0641ms total)
T157C 000:711 JLINK_ReadMemU32(0xE000EDF0, 0x0001 Items, ...) -- CPU_ReadMem(4 bytes @ 0xE000EDF0) - Data: 03 00 03 00  returns 0x01 (0001ms, 0642ms total)
T157C 000:712 JLINK_WriteU32(0xE000EDF0, 0xA05F0003) -- CPU_WriteMem(4 bytes @ 0xE000EDF0)  returns 0x00 (0001ms, 0643ms total)
T157C 000:713 JLINK_WriteU32(0xE000EDFC, 0x01000000) -- CPU_WriteMem(4 bytes @ 0xE000EDFC)  returns 0x00 (0001ms, 0644ms total)
T157C 000:730 JLINK_GetHWStatus(...)  returns 0x00 (0001ms, 0645ms total)
T157C 000:740 JLINK_GetNumBPUnits(Type = 0xFFFFFF00)  returns 0x06 (0000ms, 0645ms total)
T157C 000:740 JLINK_GetNumBPUnits(Type = 0xF0)  returns 0x2000 (0000ms, 0645ms total)
T157C 000:740 JLINK_GetNumWPUnits()  returns 0x04 (0001ms, 0646ms total)
T157C 000:751 JLINK_GetSpeed()  returns 0x3E8 (0000ms, 0646ms total)
T157C 000:758 JLINK_ReadMemU32(0xE000E004, 0x0001 Items, ...) -- CPU_ReadMem(4 bytes @ 0xE000E004) - Data: 01 00 00 00  returns 0x01 (0001ms, 0647ms total)
T157C 000:759 JLINK_ReadMemU32(0xE000E004, 0x0001 Items, ...) -- CPU_ReadMem(4 bytes @ 0xE000E004) - Data: 01 00 00 00  returns 0x01 (0001ms, 0648ms total)
T157C 000:760 JLINK_WriteMem(0xE0001000, 0x001C Bytes, ...) - Data: 01 00 00 00 00 00 00 00 00 00 00 00 00 00 00 00 ... -- CPU_WriteMem(28 bytes @ 0xE0001000)  returns 0x1C (0002ms, 0650ms total)
T157C 000:762 JLINK_ReadMem (0xE0001000, 0x001C Bytes, ...) -- CPU_ReadMem(28 bytes @ 0xE0001000) - Data: 01 00 00 40 00 00 00 00 00 00 00 00 00 00 00 00 ...  returns 0x00 (0002ms, 0652ms total)
T157C 000:764 JLINK_Halt()  returns 0x00 (0000ms, 0652ms total)
T157C 000:764 JLINK_IsHalted()  returns TRUE (0000ms, 0652ms total)
T157C 000:769 JLINK_WriteMem(0x20000000, 0x0234 Bytes, ...) - Data: 00 BE 0A E0 0D 78 2D 06 68 40 08 24 40 00 00 D3 ... -- CPU_WriteMem(564 bytes @ 0x20000000)  returns 0x234 (0009ms, 0661ms total)
T157C 000:778 JLINK_WriteReg(R0, 0x00000000)  returns 0x00 (0000ms, 0661ms total)
T157C 000:778 JLINK_WriteReg(R1, 0x03D09000)  returns 0x00 (0000ms, 0661ms total)
T157C 000:778 JLINK_WriteReg(R2, 0x00000001)  returns 0x00 (0000ms, 0661ms total)
T157C 000:778 JLINK_WriteReg(R3, 0x00000000)  returns 0x00 (0000ms, 0661ms total)
T157C 000:778 JLINK_WriteReg(R4, 0x00000000)  returns 0x00 (0000ms, 0661ms total)
T157C 000:778 JLINK_WriteReg(R5, 0x00000000)  returns 0x00 (0000ms, 0661ms total)
T157C 000:778 JLINK_WriteReg(R6, 0x00000000)  returns 0x00 (0000ms, 0661ms total)
T157C 000:778 JLINK_WriteReg(R7, 0x00000000)  returns 0x00 (0000ms, 0661ms total)
T157C 000:778 JLINK_WriteReg(R8, 0x00000000)  returns 0x00 (0000ms, 0661ms total)
T157C 000:778 JLINK_WriteReg(R9, 0x20000230)  returns 0x00 (0000ms, 0661ms total)
T157C 000:778 JLINK_WriteReg(R10, 0x00000000)  returns 0x00 (0000ms, 0661ms total)
T157C 000:778 JLINK_WriteReg(R11, 0x00000000)  returns 0x00 (0001ms, 0662ms total)
T157C 000:779 JLINK_WriteReg(R12, 0x00000000)  returns 0x00 (0000ms, 0662ms total)
T157C 000:779 JLINK_WriteReg(R13 (SP), 0x20002000)  returns 0x00 (0000ms, 0662ms total)
T157C 000:779 JLINK_WriteReg(R14, 0x20000001)  returns 0x00 (0000ms, 0662ms total)
T157C 000:779 JLINK_WriteReg(R15 (PC), 0x2000003C)  returns 0x00 (0000ms, 0662ms total)
T157C 000:779 JLINK_WriteReg(XPSR, 0x01000000)  returns 0x00 (0000ms, 0662ms total)
T157C 000:779 JLINK_WriteReg(MSP, 0x20002000)  returns 0x00 (0000ms, 0662ms total)
T157C 000:779 JLINK_WriteReg(PSP, 0x20002000)  returns 0x00 (0000ms, 0662ms total)
T157C 000:779 JLINK_WriteReg(CFBP, 0x00000000)  returns 0x00 (0000ms, 0662ms total)
T157C 000:779 JLINK_SetBPEx(Addr = 0x20000000, Type = 0xFFFFFFF2) -- CPU_ReadMem(2 bytes @ 0x20000000)  returns 0x00000001 (0001ms, 0663ms total)
T157C 000:780 JLINK_Go() -- CPU_WriteMem(2 bytes @ 0x20000000) -- CPU_ReadMem(4 bytes @ 0xE0001000) -- CPU_WriteMem(4 bytes @ 0xE0002008) -- CPU_WriteMem(4 bytes @ 0xE000200C) -- CPU_WriteMem(4 bytes @ 0xE0002010) -- CPU_WriteMem(4 bytes @ 0xE0002014) -- CPU_WriteMem(4 bytes @ 0xE0002018) -- CPU_WriteMem(4 bytes @ 0xE000201C) -- CPU_WriteMem(4 bytes @ 0xE0001004) (0008ms, 0671ms total)
T157C 000:788 JLINK_IsHalted() -- CPU_ReadMem(2 bytes @ 0x20000000)  returns TRUE (0007ms, 0678ms total)
T157C 000:795 JLINK_ReadReg(R15 (PC))  returns 0x20000000 (0000ms, 0671ms total)
T157C 000:795 JLINK_ClrBPEx(BPHandle = 0x00000001)  returns 0x00 (0000ms, 0671ms total)
T157C 000:795 JLINK_ReadReg(R0)  returns 0x00000000 (0000ms, 0671ms total)
T157C 000:796 JLINK_WriteReg(R0, 0x00026000)  returns 0x00 (0000ms, 0671ms total)
T157C 000:796 JLINK_WriteReg(R1, 0x00001000)  returns 0x00 (0000ms, 0671ms total)
T157C 000:796 JLINK_WriteReg(R2, 0x000000FF)  returns 0x00 (0000ms, 0671ms total)
T157C 000:796 JLINK_WriteReg(R3, 0x00000000)  returns 0x00 (0000ms, 0671ms total)
T157C 000:796 JLINK_WriteReg(R4, 0x00000000)  returns 0x00 (0000ms, 0671ms total)
T157C 000:796 JLINK_WriteReg(R5, 0x00000000)  returns 0x00 (0000ms, 0671ms total)
T157C 000:796 JLINK_WriteReg(R6, 0x00000000)  returns 0x00 (0000ms, 0671ms total)
T157C 000:796 JLINK_WriteReg(R7, 0x00000000)  returns 0x00 (0000ms, 0671ms total)
T157C 000:796 JLINK_WriteReg(R8, 0x00000000)  returns 0x00 (0000ms, 0671ms total)
T157C 000:796 JLINK_WriteReg(R9, 0x20000230)  returns 0x00 (0000ms, 0671ms total)
T157C 000:796 JLINK_WriteReg(R10, 0x00000000)  returns 0x00 (0000ms, 0671ms total)
T157C 000:796 JLINK_WriteReg(R11, 0x00000000)  returns 0x00 (0000ms, 0671ms total)
T157C 000:796 JLINK_WriteReg(R12, 0x00000000)  returns 0x00 (0000ms, 0671ms total)
T157C 000:796 JLINK_WriteReg(R13 (SP), 0x20002000)  returns 0x00 (0000ms, 0671ms total)
T157C 000:796 JLINK_WriteReg(R14, 0x20000001)  returns 0x00 (0000ms, 0671ms total)
T157C 000:796 JLINK_WriteReg(R15 (PC), 0x2000011A)  returns 0x00 (0000ms, 0671ms total)
T157C 000:796 JLINK_WriteReg(XPSR, 0x01000000)  returns 0x00 (0000ms, 0671ms total)
T157C 000:797 JLINK_WriteReg(MSP, 0x20002000)  returns 0x00 (0000ms, 0672ms total)
T157C 000:797 JLINK_WriteReg(PSP, 0x20002000)  returns 0x00 (0000ms, 0672ms total)
T157C 000:797 JLINK_WriteReg(CFBP, 0x00000000)  returns 0x00 (0000ms, 0672ms total)
T157C 000:797 JLINK_SetBPEx(Addr = 0x20000000, Type = 0xFFFFFFF2)  returns 0x00000002 (0000ms, 0672ms total)
T157C 000:797 JLINK_Go() -- CPU_ReadMem(4 bytes @ 0xE0001000) (0004ms, 0676ms total)
T157C 000:801 JLINK_IsHalted()  returns FALSE (0000ms, 0676ms total)
T157C 000:846 JLINK_IsHalted() -- CPU_ReadMem(2 bytes @ 0x20000000)  returns TRUE (0007ms, 0683ms total)
T157C 000:853 JLINK_ReadReg(R15 (PC))  returns 0x20000000 (0000ms, 0676ms total)
T157C 000:853 JLINK_ClrBPEx(BPHandle = 0x00000002)  returns 0x00 (0000ms, 0676ms total)
T157C 000:853 JLINK_ReadReg(R0)  returns 0x00000000 (0000ms, 0676ms total)
T157C 000:853 JLINK_WriteReg(R0, 0x00027000)  returns 0x00 (0000ms, 0676ms total)
T157C 000:853 JLINK_WriteReg(R1, 0x00001000)  returns 0x00 (0000ms, 0676ms total)
T157C 000:853 JLINK_WriteReg(R2, 0x000000FF)  returns 0x00 (0000ms, 0676ms total)
T157C 000:853 JLINK_WriteReg(R3, 0x00000000)  returns 0x00 (0000ms, 0676ms total)
T157C 000:853 JLINK_WriteReg(R4, 0x00000000)  returns 0x00 (0000ms, 0676ms total)
T157C 000:853 JLINK_WriteReg(R5, 0x00000000)  returns 0x00 (0000ms, 0676ms total)
T157C 000:853 JLINK_WriteReg(R6, 0x00000000)  returns 0x00 (0000ms, 0676ms total)
T157C 000:853 JLINK_WriteReg(R7, 0x00000000)  returns 0x00 (0000ms, 0676ms total)
T157C 000:853 JLINK_WriteReg(R8, 0x00000000)  returns 0x00 (0000ms, 0676ms total)
T157C 000:853 JLINK_WriteReg(R9, 0x20000230)  returns 0x00 (0001ms, 0677ms total)
T157C 000:854 JLINK_WriteReg(R10, 0x00000000)  returns 0x00 (0000ms, 0677ms total)
T157C 000:854 JLINK_WriteReg(R11, 0x00000000)  returns 0x00 (0000ms, 0677ms total)
T157C 000:854 JLINK_WriteReg(R12, 0x00000000)  returns 0x00 (0000ms, 0677ms total)
T157C 000:854 JLINK_WriteReg(R13 (SP), 0x20002000)  returns 0x00 (0000ms, 0677ms total)
T157C 000:854 JLINK_WriteReg(R14, 0x20000001)  returns 0x00 (0000ms, 0677ms total)
T157C 000:854 JLINK_WriteReg(R15 (PC), 0x2000011A)  returns 0x00 (0000ms, 0677ms total)
T157C 000:854 JLINK_WriteReg(XPSR, 0x01000000)  returns 0x00 (0000ms, 0677ms total)
T157C 000:854 JLINK_WriteReg(MSP, 0x20002000)  returns 0x00 (0000ms, 0677ms total)
T157C 000:854 JLINK_WriteReg(PSP, 0x20002000)  returns 0x00 (0000ms, 0677ms total)
T157C 000:854 JLINK_WriteReg(CFBP, 0x00000000)  returns 0x00 (0000ms, 0677ms total)
T157C 000:854 JLINK_SetBPEx(Addr = 0x20000000, Type = 0xFFFFFFF2)  returns 0x00000003 (0000ms, 0677ms total)
T157C 000:854 JLINK_Go() -- CPU_ReadMem(4 bytes @ 0xE0001000) (0003ms, 0680ms total)
T157C 000:857 JLINK_IsHalted()  returns FALSE (0000ms, 0680ms total)
T157C 000:860 JLINK_IsHalted() -- CPU_ReadMem(2 bytes @ 0x20000000)  returns TRUE (0007ms, 0687ms total)
T157C 000:867 JLINK_ReadReg(R15 (PC))  returns 0x20000000 (0000ms, 0680ms total)
T157C 000:867 JLINK_ClrBPEx(BPHandle = 0x00000003)  returns 0x00 (0000ms, 0680ms total)
T157C 000:867 JLINK_ReadReg(R0)  returns 0x00000000 (0000ms, 0680ms total)
T157C 000:868 JLINK_WriteReg(R0, 0x00028000)  returns 0x00 (0000ms, 0680ms total)
T157C 000:868 JLINK_WriteReg(R1, 0x00001000)  returns 0x00 (0000ms, 0680ms total)
T157C 000:868 JLINK_WriteReg(R2, 0x000000FF)  returns 0x00 (0000ms, 0680ms total)
T157C 000:868 JLINK_WriteReg(R3, 0x00000000)  returns 0x00 (0000ms, 0680ms total)
T157C 000:868 JLINK_WriteReg(R4, 0x00000000)  returns 0x00 (0000ms, 0680ms total)
T157C 000:868 JLINK_WriteReg(R5, 0x00000000)  returns 0x00 (0000ms, 0680ms total)
T157C 000:868 JLINK_WriteReg(R6, 0x00000000)  returns 0x00 (0000ms, 0680ms total)
T157C 000:868 JLINK_WriteReg(R7, 0x00000000)  returns 0x00 (0000ms, 0680ms total)
T157C 000:868 JLINK_WriteReg(R8, 0x00000000)  returns 0x00 (0000ms, 0680ms total)
T157C 000:868 JLINK_WriteReg(R9, 0x20000230)  returns 0x00 (0000ms, 0680ms total)
T157C 000:868 JLINK_WriteReg(R10, 0x00000000)  returns 0x00 (0000ms, 0680ms total)
T157C 000:868 JLINK_WriteReg(R11, 0x00000000)  returns 0x00 (0000ms, 0680ms total)
T157C 000:868 JLINK_WriteReg(R12, 0x00000000)  returns 0x00 (0000ms, 0680ms total)
T157C 000:868 JLINK_WriteReg(R13 (SP), 0x20002000)  returns 0x00 (0000ms, 0680ms total)
T157C 000:868 JLINK_WriteReg(R14, 0x20000001)  returns 0x00 (0000ms, 0680ms total)
T157C 000:868 JLINK_WriteReg(R15 (PC), 0x2000011A)  returns 0x00 (0000ms, 0680ms total)
T157C 000:868 JLINK_WriteReg(XPSR, 0x01000000)  returns 0x00 (0000ms, 0680ms total)
T157C 000:868 JLINK_WriteReg(MSP, 0x20002000)  returns 0x00 (0000ms, 0680ms total)
T157C 000:868 JLINK_WriteReg(PSP, 0x20002000)  returns 0x00 (0000ms, 0680ms total)
T157C 000:868 JLINK_WriteReg(CFBP, 0x00000000)  returns 0x00 (0000ms, 0680ms total)
T157C 000:868 JLINK_SetBPEx(Addr = 0x20000000, Type = 0xFFFFFFF2)  returns 0x00000004 (0000ms, 0680ms total)
T157C 000:868 JLINK_Go() -- CPU_ReadMem(4 bytes @ 0xE0001000) (0004ms, 0684ms total)
T157C 000:872 JLINK_IsHalted()  returns FALSE (0000ms, 0684ms total)
T157C 000:880 JLINK_IsHalted() -- CPU_ReadMem(2 bytes @ 0x20000000)  returns TRUE (0007ms, 0691ms total)
T157C 000:887 JLINK_ReadReg(R15 (PC))  returns 0x20000000 (0000ms, 0684ms total)
T157C 000:887 JLINK_ClrBPEx(BPHandle = 0x00000004)  returns 0x00 (0000ms, 0684ms total)
T157C 000:887 JLINK_ReadReg(R0)  returns 0x00000000 (0000ms, 0684ms total)
T157C 000:888 JLINK_WriteReg(R0, 0x00029000)  returns 0x00 (0000ms, 0684ms total)
T157C 000:888 JLINK_WriteReg(R1, 0x00001000)  returns 0x00 (0000ms, 0684ms total)
T157C 000:888 JLINK_WriteReg(R2, 0x000000FF)  returns 0x00 (0000ms, 0684ms total)
T157C 000:888 JLINK_WriteReg(R3, 0x00000000)  returns 0x00 (0000ms, 0684ms total)
T157C 000:888 JLINK_WriteReg(R4, 0x00000000)  returns 0x00 (0001ms, 0685ms total)
T157C 000:889 JLINK_WriteReg(R5, 0x00000000)  returns 0x00 (0000ms, 0685ms total)
T157C 000:889 JLINK_WriteReg(R6, 0x00000000)  returns 0x00 (0000ms, 0685ms total)
T157C 000:889 JLINK_WriteReg(R7, 0x00000000)  returns 0x00 (0000ms, 0685ms total)
T157C 000:889 JLINK_WriteReg(R8, 0x00000000)  returns 0x00 (0000ms, 0685ms total)
T157C 000:889 JLINK_WriteReg(R9, 0x20000230)  returns 0x00 (0000ms, 0685ms total)
T157C 000:889 JLINK_WriteReg(R10, 0x00000000)  returns 0x00 (0000ms, 0685ms total)
T157C 000:889 JLINK_WriteReg(R11, 0x00000000)  returns 0x00 (0000ms, 0685ms total)
T157C 000:889 JLINK_WriteReg(R12, 0x00000000)  returns 0x00 (0000ms, 0685ms total)
T157C 000:889 JLINK_WriteReg(R13 (SP), 0x20002000)  returns 0x00 (0000ms, 0685ms total)
T157C 000:889 JLINK_WriteReg(R14, 0x20000001)  returns 0x00 (0000ms, 0685ms total)
T157C 000:889 JLINK_WriteReg(R15 (PC), 0x2000011A)  returns 0x00 (0000ms, 0685ms total)
T157C 000:889 JLINK_WriteReg(XPSR, 0x01000000)  returns 0x00 (0000ms, 0685ms total)
T157C 000:889 JLINK_WriteReg(MSP, 0x20002000)  returns 0x00 (0000ms, 0685ms total)
T157C 000:889 JLINK_WriteReg(PSP, 0x20002000)  returns 0x00 (0000ms, 0685ms total)
T157C 000:889 JLINK_WriteReg(CFBP, 0x00000000)  returns 0x00 (0000ms, 0685ms total)
T157C 000:889 JLINK_SetBPEx(Addr = 0x20000000, Type = 0xFFFFFFF2)  returns 0x00000005 (0000ms, 0685ms total)
T157C 000:889 JLINK_Go() -- CPU_ReadMem(4 bytes @ 0xE0001000) (0004ms, 0689ms total)
T157C 000:893 JLINK_IsHalted()  returns FALSE (0000ms, 0689ms total)
T157C 000:897 JLINK_IsHalted() -- CPU_ReadMem(2 bytes @ 0x20000000)  returns TRUE (0007ms, 0696ms total)
T157C 000:904 JLINK_ReadReg(R15 (PC))  returns 0x20000000 (0000ms, 0689ms total)
T157C 000:904 JLINK_ClrBPEx(BPHandle = 0x00000005)  returns 0x00 (0000ms, 0689ms total)
T157C 000:904 JLINK_ReadReg(R0)  returns 0x00000000 (0000ms, 0689ms total)
T157C 000:905 JLINK_WriteReg(R0, 0x0002A000)  returns 0x00 (0000ms, 0689ms total)
T157C 000:905 JLINK_WriteReg(R1, 0x00001000)  returns 0x00 (0000ms, 0689ms total)
T157C 000:905 JLINK_WriteReg(R2, 0x000000FF)  returns 0x00 (0000ms, 0689ms total)
T157C 000:905 JLINK_WriteReg(R3, 0x00000000)  returns 0x00 (0000ms, 0689ms total)
T157C 000:905 JLINK_WriteReg(R4, 0x00000000)  returns 0x00 (0000ms, 0689ms total)
T157C 000:906 JLINK_WriteReg(R5, 0x00000000)  returns 0x00 (0000ms, 0689ms total)
T157C 000:906 JLINK_WriteReg(R6, 0x00000000)  returns 0x00 (0000ms, 0689ms total)
T157C 000:906 JLINK_WriteReg(R7, 0x00000000)  returns 0x00 (0000ms, 0689ms total)
T157C 000:906 JLINK_WriteReg(R8, 0x00000000)  returns 0x00 (0000ms, 0689ms total)
T157C 000:906 JLINK_WriteReg(R9, 0x20000230)  returns 0x00 (0000ms, 0689ms total)
T157C 000:906 JLINK_WriteReg(R10, 0x00000000)  returns 0x00 (0000ms, 0689ms total)
T157C 000:906 JLINK_WriteReg(R11, 0x00000000)  returns 0x00 (0000ms, 0689ms total)
T157C 000:906 JLINK_WriteReg(R12, 0x00000000)  returns 0x00 (0000ms, 0689ms total)
T157C 000:906 JLINK_WriteReg(R13 (SP), 0x20002000)  returns 0x00 (0000ms, 0689ms total)
T157C 000:906 JLINK_WriteReg(R14, 0x20000001)  returns 0x00 (0000ms, 0689ms total)
T157C 000:906 JLINK_WriteReg(R15 (PC), 0x2000011A)  returns 0x00 (0000ms, 0689ms total)
T157C 000:906 JLINK_WriteReg(XPSR, 0x01000000)  returns 0x00 (0000ms, 0689ms total)
T157C 000:906 JLINK_WriteReg(MSP, 0x20002000)  returns 0x00 (0000ms, 0689ms total)
T157C 000:906 JLINK_WriteReg(PSP, 0x20002000)  returns 0x00 (0000ms, 0689ms total)
T157C 000:906 JLINK_WriteReg(CFBP, 0x00000000)  returns 0x00 (0000ms, 0689ms total)
T157C 000:906 JLINK_SetBPEx(Addr = 0x20000000, Type = 0xFFFFFFF2)  returns 0x00000006 (0000ms, 0689ms total)
T157C 000:906 JLINK_Go() -- CPU_ReadMem(4 bytes @ 0xE0001000) (0004ms, 0693ms total)
T157C 000:910 JLINK_IsHalted()  returns FALSE (0000ms, 0693ms total)
T157C 000:911 JLINK_IsHalted() -- CPU_ReadMem(2 bytes @ 0x20000000)  returns TRUE (0007ms, 0700ms total)
T157C 000:918 JLINK_ReadReg(R15 (PC))  returns 0x20000000 (0000ms, 0693ms total)
T157C 000:918 JLINK_ClrBPEx(BPHandle = 0x00000006)  returns 0x00 (0000ms, 0693ms total)
T157C 000:918 JLINK_ReadReg(R0)  returns 0x00000000 (0000ms, 0693ms total)
T157C 000:919 JLINK_WriteReg(R0, 0x0002B000)  returns 0x00 (0000ms, 0693ms total)
T157C 000:919 JLINK_WriteReg(R1, 0x00001000)  returns 0x00 (0000ms, 0693ms total)
T157C 000:919 JLINK_WriteReg(R2, 0x000000FF)  returns 0x00 (0000ms, 0693ms total)
T157C 000:919 JLINK_WriteReg(R3, 0x00000000)  returns 0x00 (0000ms, 0693ms total)
T157C 000:919 JLINK_WriteReg(R4, 0x00000000)  returns 0x00 (0000ms, 0693ms total)
T157C 000:919 JLINK_WriteReg(R5, 0x00000000)  returns 0x00 (0000ms, 0693ms total)
T157C 000:919 JLINK_WriteReg(R6, 0x00000000)  returns 0x00 (0000ms, 0693ms total)
T157C 000:919 JLINK_WriteReg(R7, 0x00000000)  returns 0x00 (0000ms, 0693ms total)
T157C 000:919 JLINK_WriteReg(R8, 0x00000000)  returns 0x00 (0000ms, 0693ms total)
T157C 000:919 JLINK_WriteReg(R9, 0x20000230)  returns 0x00 (0000ms, 0693ms total)
T157C 000:919 JLINK_WriteReg(R10, 0x00000000)  returns 0x00 (0000ms, 0693ms total)
T157C 000:919 JLINK_WriteReg(R11, 0x00000000)  returns 0x00 (0000ms, 0693ms total)
T157C 000:919 JLINK_WriteReg(R12, 0x00000000)  returns 0x00 (0000ms, 0693ms total)
T157C 000:919 JLINK_WriteReg(R13 (SP), 0x20002000)  returns 0x00 (0001ms, 0694ms total)
T157C 000:920 JLINK_WriteReg(R14, 0x20000001)  returns 0x00 (0000ms, 0694ms total)
T157C 000:920 JLINK_WriteReg(R15 (PC), 0x2000011A)  returns 0x00 (0000ms, 0694ms total)
T157C 000:920 JLINK_WriteReg(XPSR, 0x01000000)  returns 0x00 (0000ms, 0694ms total)
T157C 000:920 JLINK_WriteReg(MSP, 0x20002000)  returns 0x00 (0000ms, 0694ms total)
T157C 000:920 JLINK_WriteReg(PSP, 0x20002000)  returns 0x00 (0000ms, 0694ms total)
T157C 000:920 JLINK_WriteReg(CFBP, 0x00000000)  returns 0x00 (0000ms, 0694ms total)
T157C 000:920 JLINK_SetBPEx(Addr = 0x20000000, Type = 0xFFFFFFF2)  returns 0x00000007 (0000ms, 0694ms total)
T157C 000:920 JLINK_Go() -- CPU_ReadMem(4 bytes @ 0xE0001000) (0003ms, 0697ms total)
T157C 000:923 JLINK_IsHalted()  returns FALSE (0001ms, 0698ms total)
T157C 000:929 JLINK_IsHalted() -- CPU_ReadMem(2 bytes @ 0x20000000)  returns TRUE (0007ms, 0704ms total)
T157C 000:936 JLINK_ReadReg(R15 (PC))  returns 0x20000000 (0000ms, 0697ms total)
T157C 000:936 JLINK_ClrBPEx(BPHandle = 0x00000007)  returns 0x00 (0000ms, 0697ms total)
T157C 000:936 JLINK_ReadReg(R0)  returns 0x00000000 (0000ms, 0697ms total)
T157C 000:937 JLINK_WriteReg(R0, 0x0002C000)  returns 0x00 (0000ms, 0697ms total)
T157C 000:937 JLINK_WriteReg(R1, 0x00001000)  returns 0x00 (0000ms, 0697ms total)
T157C 000:937 JLINK_WriteReg(R2, 0x000000FF)  returns 0x00 (0000ms, 0697ms total)
T157C 000:937 JLINK_WriteReg(R3, 0x00000000)  returns 0x00 (0000ms, 0697ms total)
T157C 000:937 JLINK_WriteReg(R4, 0x00000000)  returns 0x00 (0000ms, 0697ms total)
T157C 000:937 JLINK_WriteReg(R5, 0x00000000)  returns 0x00 (0000ms, 0697ms total)
T157C 000:937 JLINK_WriteReg(R6, 0x00000000)  returns 0x00 (0000ms, 0697ms total)
T157C 000:937 JLINK_WriteReg(R7, 0x00000000)  returns 0x00 (0000ms, 0697ms total)
T157C 000:937 JLINK_WriteReg(R8, 0x00000000)  returns 0x00 (0000ms, 0697ms total)
T157C 000:937 JLINK_WriteReg(R9, 0x20000230)  returns 0x00 (0000ms, 0697ms total)
T157C 000:937 JLINK_WriteReg(R10, 0x00000000)  returns 0x00 (0000ms, 0697ms total)
T157C 000:937 JLINK_WriteReg(R11, 0x00000000)  returns 0x00 (0000ms, 0697ms total)
T157C 000:937 JLINK_WriteReg(R12, 0x00000000)  returns 0x00 (0000ms, 0697ms total)
T157C 000:937 JLINK_WriteReg(R13 (SP), 0x20002000)  returns 0x00 (0000ms, 0697ms total)
T157C 000:938 JLINK_WriteReg(R14, 0x20000001)  returns 0x00 (0000ms, 0698ms total)
T157C 000:938 JLINK_WriteReg(R15 (PC), 0x2000011A)  returns 0x00 (0000ms, 0698ms total)
T157C 000:938 JLINK_WriteReg(XPSR, 0x01000000)  returns 0x00 (0000ms, 0698ms total)
T157C 000:938 JLINK_WriteReg(MSP, 0x20002000)  returns 0x00 (0000ms, 0698ms total)
T157C 000:938 JLINK_WriteReg(PSP, 0x20002000)  returns 0x00 (0000ms, 0698ms total)
T157C 000:938 JLINK_WriteReg(CFBP, 0x00000000)  returns 0x00 (0000ms, 0698ms total)
T157C 000:938 JLINK_SetBPEx(Addr = 0x20000000, Type = 0xFFFFFFF2)  returns 0x00000008 (0000ms, 0698ms total)
T157C 000:938 JLINK_Go() -- CPU_ReadMem(4 bytes @ 0xE0001000) (0003ms, 0701ms total)
T157C 000:941 JLINK_IsHalted()  returns FALSE (0001ms, 0702ms total)
T157C 000:943 JLINK_IsHalted() -- CPU_ReadMem(2 bytes @ 0x20000000)  returns TRUE (0007ms, 0708ms total)
T157C 000:950 JLINK_ReadReg(R15 (PC))  returns 0x20000000 (0000ms, 0708ms total)
T157C 000:950 JLINK_ClrBPEx(BPHandle = 0x00000008)  returns 0x00 (0000ms, 0708ms total)
T157C 000:950 JLINK_ReadReg(R0)  returns 0x00000000 (0000ms, 0708ms total)
T157C 000:951 JLINK_WriteReg(R0, 0x00000001)  returns 0x00 (0000ms, 0708ms total)
T157C 000:951 JLINK_WriteReg(R1, 0x00001000)  returns 0x00 (0000ms, 0708ms total)
T157C 000:951 JLINK_WriteReg(R2, 0x000000FF)  returns 0x00 (0000ms, 0708ms total)
T157C 000:951 JLINK_WriteReg(R3, 0x00000000)  returns 0x00 (0000ms, 0708ms total)
T157C 000:951 JLINK_WriteReg(R4, 0x00000000)  returns 0x00 (0000ms, 0708ms total)
T157C 000:951 JLINK_WriteReg(R5, 0x00000000)  returns 0x00 (0000ms, 0708ms total)
T157C 000:951 JLINK_WriteReg(R6, 0x00000000)  returns 0x00 (0000ms, 0708ms total)
T157C 000:951 JLINK_WriteReg(R7, 0x00000000)  returns 0x00 (0000ms, 0708ms total)
T157C 000:951 JLINK_WriteReg(R8, 0x00000000)  returns 0x00 (0000ms, 0708ms total)
T157C 000:951 JLINK_WriteReg(R9, 0x20000230)  returns 0x00 (0000ms, 0708ms total)
T157C 000:951 JLINK_WriteReg(R10, 0x00000000)  returns 0x00 (0000ms, 0708ms total)
T157C 000:951 JLINK_WriteReg(R11, 0x00000000)  returns 0x00 (0000ms, 0708ms total)
T157C 000:951 JLINK_WriteReg(R12, 0x00000000)  returns 0x00 (0000ms, 0708ms total)
T157C 000:951 JLINK_WriteReg(R13 (SP), 0x20002000)  returns 0x00 (0000ms, 0708ms total)
T157C 000:951 JLINK_WriteReg(R14, 0x20000001)  returns 0x00 (0000ms, 0708ms total)
T157C 000:951 JLINK_WriteReg(R15 (PC), 0x2000008E)  returns 0x00 (0000ms, 0708ms total)
T157C 000:951 JLINK_WriteReg(XPSR, 0x01000000)  returns 0x00 (0000ms, 0708ms total)
T157C 000:951 JLINK_WriteReg(MSP, 0x20002000)  returns 0x00 (0000ms, 0708ms total)
T157C 000:951 JLINK_WriteReg(PSP, 0x20002000)  returns 0x00 (0000ms, 0708ms total)
T157C 000:951 JLINK_WriteReg(CFBP, 0x00000000)  returns 0x00 (0000ms, 0708ms total)
T157C 000:951 JLINK_SetBPEx(Addr = 0x20000000, Type = 0xFFFFFFF2)  returns 0x00000009 (0000ms, 0708ms total)
T157C 000:951 JLINK_Go() -- CPU_ReadMem(4 bytes @ 0xE0001000) (0004ms, 0712ms total)
T157C 000:955 JLINK_IsHalted() -- CPU_ReadMem(2 bytes @ 0x20000000)  returns TRUE (0007ms, 0719ms total)
T157C 000:962 JLINK_ReadReg(R15 (PC))  returns 0x20000000 (0000ms, 0712ms total)
T157C 000:962 JLINK_ClrBPEx(BPHandle = 0x00000009)  returns 0x00 (0000ms, 0712ms total)
T157C 000:962 JLINK_ReadReg(R0)  returns 0x00000000 (0000ms, 0712ms total)
T157C 001:023 JLINK_WriteMem(0x20000000, 0x0234 Bytes, ...) - Data: 00 BE 0A E0 0D 78 2D 06 68 40 08 24 40 00 00 D3 ... -- CPU_WriteMem(564 bytes @ 0x20000000)  returns 0x234 (0008ms, 0720ms total)
T157C 001:031 JLINK_WriteReg(R0, 0x00000000)  returns 0x00 (0000ms, 0720ms total)
T157C 001:031 JLINK_WriteReg(R1, 0x03D09000)  returns 0x00 (0000ms, 0720ms total)
T157C 001:031 JLINK_WriteReg(R2, 0x00000002)  returns 0x00 (0000ms, 0720ms total)
T157C 001:031 JLINK_WriteReg(R3, 0x00000000)  returns 0x00 (0000ms, 0720ms total)
T157C 001:031 JLINK_WriteReg(R4, 0x00000000)  returns 0x00 (0000ms, 0720ms total)
T157C 001:031 JLINK_WriteReg(R5, 0x00000000)  returns 0x00 (0000ms, 0720ms total)
T157C 001:031 JLINK_WriteReg(R6, 0x00000000)  returns 0x00 (0000ms, 0720ms total)
T157C 001:031 JLINK_WriteReg(R7, 0x00000000)  returns 0x00 (0000ms, 0720ms total)
T157C 001:031 JLINK_WriteReg(R8, 0x00000000)  returns 0x00 (0000ms, 0720ms total)
T157C 001:031 JLINK_WriteReg(R9, 0x20000230)  returns 0x00 (0000ms, 0720ms total)
T157C 001:031 JLINK_WriteReg(R10, 0x00000000)  returns 0x00 (0000ms, 0720ms total)
T157C 001:031 JLINK_WriteReg(R11, 0x00000000)  returns 0x00 (0000ms, 0720ms total)
T157C 001:031 JLINK_WriteReg(R12, 0x00000000)  returns 0x00 (0000ms, 0720ms total)
T157C 001:031 JLINK_WriteReg(R13 (SP), 0x20002000)  returns 0x00 (0001ms, 0721ms total)
T157C 001:032 JLINK_WriteReg(R14, 0x20000001)  returns 0x00 (0000ms, 0721ms total)
T157C 001:032 JLINK_WriteReg(R15 (PC), 0x2000003C)  returns 0x00 (0000ms, 0721ms total)
T157C 001:032 JLINK_WriteReg(XPSR, 0x01000000)  returns 0x00 (0000ms, 0721ms total)
T157C 001:032 JLINK_WriteReg(MSP, 0x20002000)  returns 0x00 (0000ms, 0721ms total)
T157C 001:032 JLINK_WriteReg(PSP, 0x20002000)  returns 0x00 (0000ms, 0721ms total)
T157C 001:032 JLINK_WriteReg(CFBP, 0x00000000)  returns 0x00 (0000ms, 0721ms total)
T157C 001:032 JLINK_SetBPEx(Addr = 0x20000000, Type = 0xFFFFFFF2) -- CPU_ReadMem(2 bytes @ 0x20000000)  returns 0x0000000A (0000ms, 0721ms total)
T157C 001:032 JLINK_Go() -- CPU_WriteMem(2 bytes @ 0x20000000) -- CPU_ReadMem(4 bytes @ 0xE0001000) (0004ms, 0725ms total)
T157C 001:036 JLINK_IsHalted() -- CPU_ReadMem(2 bytes @ 0x20000000)  returns TRUE (0007ms, 0732ms total)
T157C 001:044 JLINK_ReadReg(R15 (PC))  returns 0x20000000 (0000ms, 0725ms total)
T157C 001:044 JLINK_ClrBPEx(BPHandle = 0x0000000A)  returns 0x00 (0000ms, 0725ms total)
T157C 001:044 JLINK_ReadReg(R0)  returns 0x00000000 (0000ms, 0725ms total)
T157C 001:044 JLINK_WriteMem(0x20000234, 0x0DCC Bytes, ...) - Data: 90 5E 00 20 F9 62 02 00 01 63 02 00 03 63 02 00 ... -- CPU_WriteMem(3532 bytes @ 0x20000234)  returns 0xDCC (0048ms, 0773ms total)
T157C 001:092 JLINK_WriteMem(0x20001000, 0x0234 Bytes, ...) - Data: 70 47 0E 20 70 47 01 60 83 80 00 21 81 60 C1 60 ... -- CPU_WriteMem(564 bytes @ 0x20001000)  returns 0x234 (0008ms, 0781ms total)
T157C 001:100 JLINK_WriteReg(R0, 0x00026000)  returns 0x00 (0000ms, 0781ms total)
T157C 001:100 JLINK_WriteReg(R1, 0x00001000)  returns 0x00 (0000ms, 0781ms total)
T157C 001:100 JLINK_WriteReg(R2, 0x20000234)  returns 0x00 (0000ms, 0781ms total)
T157C 001:100 JLINK_WriteReg(R3, 0x00000000)  returns 0x00 (0000ms, 0781ms total)
T157C 001:100 JLINK_WriteReg(R4, 0x00000000)  returns 0x00 (0000ms, 0781ms total)
T157C 001:100 JLINK_WriteReg(R5, 0x00000000)  returns 0x00 (0000ms, 0781ms total)
T157C 001:100 JLINK_WriteReg(R6, 0x00000000)  returns 0x00 (0000ms, 0781ms total)
T157C 001:100 JLINK_WriteReg(R7, 0x00000000)  returns 0x00 (0000ms, 0781ms total)
T157C 001:100 JLINK_WriteReg(R8, 0x00000000)  returns 0x00 (0000ms, 0781ms total)
T157C 001:100 JLINK_WriteReg(R9, 0x20000230)  returns 0x00 (0001ms, 0782ms total)
T157C 001:101 JLINK_WriteReg(R10, 0x00000000)  returns 0x00 (0000ms, 0782ms total)
T157C 001:101 JLINK_WriteReg(R11, 0x00000000)  returns 0x00 (0000ms, 0782ms total)
T157C 001:101 JLINK_WriteReg(R12, 0x00000000)  returns 0x00 (0000ms, 0782ms total)
T157C 001:101 JLINK_WriteReg(R13 (SP), 0x20002000)  returns 0x00 (0000ms, 0782ms total)
T157C 001:101 JLINK_WriteReg(R14, 0x20000001)  returns 0x00 (0000ms, 0782ms total)
T157C 001:101 JLINK_WriteReg(R15 (PC), 0x20000156)  returns 0x00 (0000ms, 0782ms total)
T157C 001:101 JLINK_WriteReg(XPSR, 0x01000000)  returns 0x00 (0000ms, 0782ms total)
T157C 001:101 JLINK_WriteReg(MSP, 0x20002000)  returns 0x00 (0000ms, 0782ms total)
T157C 001:101 JLINK_WriteReg(PSP, 0x20002000)  returns 0x00 (0000ms, 0782ms total)
T157C 001:101 JLINK_WriteReg(CFBP, 0x00000000)  returns 0x00 (0000ms, 0782ms total)
T157C 001:101 JLINK_SetBPEx(Addr = 0x20000000, Type = 0xFFFFFFF2)  returns 0x0000000B (0000ms, 0782ms total)
T157C 001:101 JLINK_Go() -- CPU_ReadMem(4 bytes @ 0xE0001000) (0004ms, 0786ms total)
T157C 001:105 JLINK_IsHalted()  returns FALSE (0001ms, 0787ms total)
T157C 001:113 JLINK_IsHalted()  returns FALSE (0000ms, 0786ms total)
T157C 001:114 JLINK_IsHalted()  returns FALSE (0000ms, 0786ms total)
T157C 001:115 JLINK_IsHalted()  returns FALSE (0000ms, 0786ms total)
T157C 001:116 JLINK_IsHalted()  returns FALSE (0000ms, 0786ms total)
T157C 001:117 JLINK_IsHalted()  returns FALSE (0000ms, 0786ms total)
T157C 001:121 JLINK_IsHalted()  returns FALSE (0000ms, 0786ms total)
T157C 001:122 JLINK_IsHalted()  returns FALSE (0000ms, 0786ms total)
T157C 001:123 JLINK_IsHalted()  returns FALSE (0000ms, 0786ms total)
T157C 001:124 JLINK_IsHalted()  returns FALSE (0000ms, 0786ms total)
T157C 001:125 JLINK_IsHalted()  returns FALSE (0000ms, 0786ms total)
T157C 001:126 JLINK_IsHalted()  returns FALSE (0000ms, 0786ms total)
T157C 001:127 JLINK_IsHalted()  returns FALSE (0000ms, 0786ms total)
T157C 001:128 JLINK_IsHalted()  returns FALSE (0000ms, 0786ms total)
T157C 001:129 JLINK_IsHalted()  returns FALSE (0000ms, 0786ms total)
T157C 001:130 JLINK_IsHalted()  returns FALSE (0000ms, 0786ms total)
T157C 001:131 JLINK_IsHalted()  returns FALSE (0000ms, 0786ms total)
T157C 001:132 JLINK_IsHalted()  returns FALSE (0000ms, 0786ms total)
T157C 001:133 JLINK_IsHalted()  returns FALSE (0000ms, 0786ms total)
T157C 001:134 JLINK_IsHalted()  returns FALSE (0000ms, 0786ms total)
T157C 001:135 JLINK_IsHalted()  returns FALSE (0000ms, 0786ms total)
T157C 001:136 JLINK_IsHalted()  returns FALSE (0000ms, 0786ms total)
T157C 001:137 JLINK_IsHalted()  returns FALSE (0000ms, 0786ms total)
T157C 001:138 JLINK_IsHalted()  returns FALSE (0000ms, 0786ms total)
T157C 001:139 JLINK_IsHalted()  returns FALSE (0000ms, 0786ms total)
T157C 001:140 JLINK_IsHalted()  returns FALSE (0000ms, 0786ms total)
T157C 001:141 JLINK_IsHalted()  returns FALSE (0000ms, 0786ms total)
T157C 001:142 JLINK_IsHalted()  returns FALSE (0000ms, 0786ms total)
T157C 001:143 JLINK_IsHalted()  returns FALSE (0000ms, 0786ms total)
T157C 001:144 JLINK_IsHalted()  returns FALSE (0000ms, 0786ms total)
T157C 001:145 JLINK_IsHalted()  returns FALSE (0000ms, 0786ms total)
T157C 001:146 JLINK_IsHalted()  returns FALSE (0000ms, 0786ms total)
T157C 001:147 JLINK_IsHalted()  returns FALSE (0000ms, 0786ms total)
T157C 001:148 JLINK_IsHalted()  returns FALSE (0000ms, 0786ms total)
T157C 001:149 JLINK_IsHalted()  returns FALSE (0000ms, 0786ms total)
T157C 001:150 JLINK_IsHalted()  returns FALSE (0000ms, 0786ms total)
T157C 001:151 JLINK_IsHalted()  returns FALSE (0000ms, 0786ms total)
T157C 001:152 JLINK_IsHalted()  returns FALSE (0000ms, 0786ms total)
T157C 001:153 JLINK_IsHalted()  returns FALSE (0000ms, 0786ms total)
T157C 001:154 JLINK_IsHalted()  returns FALSE (0000ms, 0786ms total)
T157C 001:155 JLINK_IsHalted()  returns FALSE (0000ms, 0786ms total)
T157C 001:156 JLINK_IsHalted()  returns FALSE (0000ms, 0786ms total)
T157C 001:157 JLINK_IsHalted()  returns FALSE (0000ms, 0786ms total)
T157C 001:158 JLINK_IsHalted()  returns FALSE (0000ms, 0786ms total)
T157C 001:159 JLINK_IsHalted()  returns FALSE (0000ms, 0786ms total)
T157C 001:160 JLINK_IsHalted()  returns FALSE (0000ms, 0786ms total)
T157C 001:161 JLINK_IsHalted()  returns FALSE (0000ms, 0786ms total)
T157C 001:162 JLINK_IsHalted()  returns FALSE (0000ms, 0786ms total)
T157C 001:163 JLINK_IsHalted()  returns FALSE (0000ms, 0786ms total)
T157C 001:164 JLINK_IsHalted()  returns FALSE (0000ms, 0786ms total)
T157C 001:165 JLINK_IsHalted()  returns FALSE (0000ms, 0786ms total)
T157C 001:166 JLINK_IsHalted()  returns FALSE (0000ms, 0786ms total)
T157C 001:167 JLINK_IsHalted()  returns FALSE (0000ms, 0786ms total)
T157C 001:168 JLINK_IsHalted()  returns FALSE (0000ms, 0786ms total)
T157C 001:169 JLINK_IsHalted()  returns FALSE (0000ms, 0786ms total)
T157C 001:170 JLINK_IsHalted()  returns FALSE (0000ms, 0786ms total)
T157C 001:171 JLINK_IsHalted()  returns FALSE (0000ms, 0786ms total)
T157C 001:172 JLINK_IsHalted()  returns FALSE (0000ms, 0786ms total)
T157C 001:173 JLINK_IsHalted()  returns FALSE (0000ms, 0786ms total)
T157C 001:174 JLINK_IsHalted() -- CPU_ReadMem(2 bytes @ 0x20000000)  returns TRUE (0007ms, 0793ms total)
T157C 001:181 JLINK_ReadReg(R15 (PC))  returns 0x20000000 (0000ms, 0786ms total)
T157C 001:181 JLINK_ClrBPEx(BPHandle = 0x0000000B)  returns 0x00 (0000ms, 0786ms total)
T157C 001:181 JLINK_ReadReg(R0)  returns 0x00000000 (0000ms, 0786ms total)
T157C 001:182 JLINK_WriteMem(0x20000234, 0x0DCC Bytes, ...) - Data: 19 D1 0F 48 0F 4A 01 78 51 5C 19 B1 00 1D 03 F0 ... -- CPU_WriteMem(3532 bytes @ 0x20000234)  returns 0xDCC (0048ms, 0834ms total)
T157C 001:230 JLINK_WriteMem(0x20001000, 0x0234 Bytes, ...) - Data: 50 41 C0 03 4F F4 FA 72 80 18 41 F1 00 01 52 00 ... -- CPU_WriteMem(564 bytes @ 0x20001000)  returns 0x234 (0008ms, 0842ms total)
T157C 001:238 JLINK_WriteReg(R0, 0x00027000)  returns 0x00 (0000ms, 0842ms total)
T157C 001:238 JLINK_WriteReg(R1, 0x00001000)  returns 0x00 (0000ms, 0842ms total)
T157C 001:238 JLINK_WriteReg(R2, 0x20000234)  returns 0x00 (0000ms, 0842ms total)
T157C 001:238 JLINK_WriteReg(R3, 0x00000000)  returns 0x00 (0000ms, 0842ms total)
T157C 001:238 JLINK_WriteReg(R4, 0x00000000)  returns 0x00 (0000ms, 0842ms total)
T157C 001:238 JLINK_WriteReg(R5, 0x00000000)  returns 0x00 (0000ms, 0842ms total)
T157C 001:238 JLINK_WriteReg(R6, 0x00000000)  returns 0x00 (0000ms, 0842ms total)
T157C 001:238 JLINK_WriteReg(R7, 0x00000000)  returns 0x00 (0000ms, 0842ms total)
T157C 001:238 JLINK_WriteReg(R8, 0x00000000)  returns 0x00 (0000ms, 0842ms total)
T157C 001:238 JLINK_WriteReg(R9, 0x20000230)  returns 0x00 (0000ms, 0842ms total)
T157C 001:238 JLINK_WriteReg(R10, 0x00000000)  returns 0x00 (0001ms, 0843ms total)
T157C 001:239 JLINK_WriteReg(R11, 0x00000000)  returns 0x00 (0000ms, 0843ms total)
T157C 001:239 JLINK_WriteReg(R12, 0x00000000)  returns 0x00 (0000ms, 0843ms total)
T157C 001:239 JLINK_WriteReg(R13 (SP), 0x20002000)  returns 0x00 (0000ms, 0843ms total)
T157C 001:239 JLINK_WriteReg(R14, 0x20000001)  returns 0x00 (0000ms, 0843ms total)
T157C 001:239 JLINK_WriteReg(R15 (PC), 0x20000156)  returns 0x00 (0000ms, 0843ms total)
T157C 001:239 JLINK_WriteReg(XPSR, 0x01000000)  returns 0x00 (0000ms, 0843ms total)
T157C 001:239 JLINK_WriteReg(MSP, 0x20002000)  returns 0x00 (0000ms, 0843ms total)
T157C 001:239 JLINK_WriteReg(PSP, 0x20002000)  returns 0x00 (0000ms, 0843ms total)
T157C 001:239 JLINK_WriteReg(CFBP, 0x00000000)  returns 0x00 (0000ms, 0843ms total)
T157C 001:239 JLINK_SetBPEx(Addr = 0x20000000, Type = 0xFFFFFFF2)  returns 0x0000000C (0000ms, 0843ms total)
T157C 001:239 JLINK_Go() -- CPU_ReadMem(4 bytes @ 0xE0001000) (0004ms, 0847ms total)
T157C 001:243 JLINK_IsHalted()  returns FALSE (0001ms, 0848ms total)
T157C 001:249 JLINK_IsHalted()  returns FALSE (0000ms, 0847ms total)
T157C 001:250 JLINK_IsHalted()  returns FALSE (0000ms, 0847ms total)
T157C 001:251 JLINK_IsHalted()  returns FALSE (0000ms, 0847ms total)
T157C 001:252 JLINK_IsHalted()  returns FALSE (0000ms, 0847ms total)
T157C 001:253 JLINK_IsHalted()  returns FALSE (0000ms, 0847ms total)
T157C 001:254 JLINK_IsHalted()  returns FALSE (0000ms, 0847ms total)
T157C 001:255 JLINK_IsHalted()  returns FALSE (0000ms, 0847ms total)
T157C 001:256 JLINK_IsHalted()  returns FALSE (0000ms, 0847ms total)
T157C 001:257 JLINK_IsHalted()  returns FALSE (0000ms, 0847ms total)
T157C 001:258 JLINK_IsHalted()  returns FALSE (0000ms, 0847ms total)
T157C 001:259 JLINK_IsHalted()  returns FALSE (0000ms, 0847ms total)
T157C 001:260 JLINK_IsHalted()  returns FALSE (0000ms, 0847ms total)
T157C 001:261 JLINK_IsHalted()  returns FALSE (0000ms, 0847ms total)
T157C 001:262 JLINK_IsHalted()  returns FALSE (0000ms, 0847ms total)
T157C 001:263 JLINK_IsHalted()  returns FALSE (0000ms, 0847ms total)
T157C 001:264 JLINK_IsHalted()  returns FALSE (0001ms, 0848ms total)
T157C 001:266 JLINK_IsHalted()  returns FALSE (0000ms, 0847ms total)
T157C 001:267 JLINK_IsHalted()  returns FALSE (0000ms, 0847ms total)
T157C 001:268 JLINK_IsHalted()  returns FALSE (0000ms, 0847ms total)
T157C 001:269 JLINK_IsHalted()  returns FALSE (0000ms, 0847ms total)
T157C 001:270 JLINK_IsHalted()  returns FALSE (0000ms, 0847ms total)
T157C 001:271 JLINK_IsHalted()  returns FALSE (0000ms, 0847ms total)
T157C 001:272 JLINK_IsHalted()  returns FALSE (0000ms, 0847ms total)
T157C 001:273 JLINK_IsHalted()  returns FALSE (0000ms, 0847ms total)
T157C 001:274 JLINK_IsHalted()  returns FALSE (0000ms, 0847ms total)
T157C 001:275 JLINK_IsHalted()  returns FALSE (0000ms, 0847ms total)
T157C 001:276 JLINK_IsHalted()  returns FALSE (0000ms, 0847ms total)
T157C 001:277 JLINK_IsHalted()  returns FALSE (0000ms, 0847ms total)
T157C 001:278 JLINK_IsHalted()  returns FALSE (0000ms, 0847ms total)
T157C 001:279 JLINK_IsHalted()  returns FALSE (0000ms, 0847ms total)
T157C 001:280 JLINK_IsHalted()  returns FALSE (0000ms, 0847ms total)
T157C 001:281 JLINK_IsHalted()  returns FALSE (0000ms, 0847ms total)
T157C 001:282 JLINK_IsHalted()  returns FALSE (0000ms, 0847ms total)
T157C 001:283 JLINK_IsHalted()  returns FALSE (0000ms, 0847ms total)
T157C 001:284 JLINK_IsHalted()  returns FALSE (0000ms, 0847ms total)
T157C 001:285 JLINK_IsHalted()  returns FALSE (0000ms, 0847ms total)
T157C 001:286 JLINK_IsHalted()  returns FALSE (0000ms, 0847ms total)
T157C 001:287 JLINK_IsHalted()  returns FALSE (0000ms, 0847ms total)
T157C 001:288 JLINK_IsHalted()  returns FALSE (0000ms, 0847ms total)
T157C 001:289 JLINK_IsHalted()  returns FALSE (0000ms, 0847ms total)
T157C 001:290 JLINK_IsHalted()  returns FALSE (0000ms, 0847ms total)
T157C 001:291 JLINK_IsHalted()  returns FALSE (0000ms, 0847ms total)
T157C 001:292 JLINK_IsHalted()  returns FALSE (0000ms, 0847ms total)
T157C 001:293 JLINK_IsHalted()  returns FALSE (0000ms, 0847ms total)
T157C 001:294 JLINK_IsHalted()  returns FALSE (0000ms, 0847ms total)
T157C 001:295 JLINK_IsHalted()  returns FALSE (0000ms, 0847ms total)
T157C 001:296 JLINK_IsHalted()  returns FALSE (0000ms, 0847ms total)
T157C 001:297 JLINK_IsHalted()  returns FALSE (0000ms, 0847ms total)
T157C 001:298 JLINK_IsHalted()  returns FALSE (0000ms, 0847ms total)
T157C 001:299 JLINK_IsHalted()  returns FALSE (0000ms, 0847ms total)
T157C 001:300 JLINK_IsHalted()  returns FALSE (0000ms, 0847ms total)
T157C 001:301 JLINK_IsHalted()  returns FALSE (0000ms, 0847ms total)
T157C 001:302 JLINK_IsHalted()  returns FALSE (0000ms, 0847ms total)
T157C 001:303 JLINK_IsHalted()  returns FALSE (0000ms, 0847ms total)
T157C 001:304 JLINK_IsHalted()  returns FALSE (0000ms, 0847ms total)
T157C 001:305 JLINK_IsHalted()  returns FALSE (0000ms, 0847ms total)
T157C 001:306 JLINK_IsHalted()  returns FALSE (0000ms, 0847ms total)
T157C 001:307 JLINK_IsHalted()  returns FALSE (0000ms, 0847ms total)
T157C 001:308 JLINK_IsHalted()  returns FALSE (0000ms, 0847ms total)
T157C 001:309 JLINK_IsHalted()  returns FALSE (0000ms, 0847ms total)
T157C 001:310 JLINK_IsHalted()  returns FALSE (0000ms, 0847ms total)
T157C 001:311 JLINK_IsHalted()  returns FALSE (0000ms, 0847ms total)
T157C 001:312 JLINK_IsHalted() -- CPU_ReadMem(2 bytes @ 0x20000000)  returns TRUE (0007ms, 0854ms total)
T157C 001:319 JLINK_ReadReg(R15 (PC))  returns 0x20000000 (0000ms, 0847ms total)
T157C 001:319 JLINK_ClrBPEx(BPHandle = 0x0000000C)  returns 0x00 (0000ms, 0847ms total)
T157C 001:319 JLINK_ReadReg(R0)  returns 0x00000000 (0000ms, 0847ms total)
T157C 001:320 JLINK_WriteMem(0x20000234, 0x0DCC Bytes, ...) - Data: 2D E9 F0 5F 26 48 41 68 F1 B3 DF F8 98 B0 0E 68 ... -- CPU_WriteMem(3532 bytes @ 0x20000234)  returns 0xDCC (0048ms, 0895ms total)
T157C 001:368 JLINK_WriteMem(0x20001000, 0x0234 Bytes, ...) - Data: 70 47 08 B5 00 F1 80 40 00 21 01 60 00 68 00 90 ... -- CPU_WriteMem(564 bytes @ 0x20001000)  returns 0x234 (0008ms, 0903ms total)
T157C 001:376 JLINK_WriteReg(R0, 0x00028000)  returns 0x00 (0000ms, 0903ms total)
T157C 001:376 JLINK_WriteReg(R1, 0x00001000)  returns 0x00 (0000ms, 0903ms total)
T157C 001:376 JLINK_WriteReg(R2, 0x20000234)  returns 0x00 (0000ms, 0903ms total)
T157C 001:376 JLINK_WriteReg(R3, 0x00000000)  returns 0x00 (0000ms, 0903ms total)
T157C 001:376 JLINK_WriteReg(R4, 0x00000000)  returns 0x00 (0000ms, 0903ms total)
T157C 001:376 JLINK_WriteReg(R5, 0x00000000)  returns 0x00 (0000ms, 0903ms total)
T157C 001:376 JLINK_WriteReg(R6, 0x00000000)  returns 0x00 (0000ms, 0903ms total)
T157C 001:376 JLINK_WriteReg(R7, 0x00000000)  returns 0x00 (0000ms, 0903ms total)
T157C 001:376 JLINK_WriteReg(R8, 0x00000000)  returns 0x00 (0000ms, 0903ms total)
T157C 001:376 JLINK_WriteReg(R9, 0x20000230)  returns 0x00 (0000ms, 0903ms total)
T157C 001:376 JLINK_WriteReg(R10, 0x00000000)  returns 0x00 (0000ms, 0903ms total)
T157C 001:377 JLINK_WriteReg(R11, 0x00000000)  returns 0x00 (0000ms, 0903ms total)
T157C 001:377 JLINK_WriteReg(R12, 0x00000000)  returns 0x00 (0000ms, 0903ms total)
T157C 001:377 JLINK_WriteReg(R13 (SP), 0x20002000)  returns 0x00 (0000ms, 0903ms total)
T157C 001:377 JLINK_WriteReg(R14, 0x20000001)  returns 0x00 (0000ms, 0903ms total)
T157C 001:377 JLINK_WriteReg(R15 (PC), 0x20000156)  returns 0x00 (0000ms, 0903ms total)
T157C 001:377 JLINK_WriteReg(XPSR, 0x01000000)  returns 0x00 (0000ms, 0903ms total)
T157C 001:377 JLINK_WriteReg(MSP, 0x20002000)  returns 0x00 (0000ms, 0903ms total)
T157C 001:377 JLINK_WriteReg(PSP, 0x20002000)  returns 0x00 (0000ms, 0903ms total)
T157C 001:377 JLINK_WriteReg(CFBP, 0x00000000)  returns 0x00 (0000ms, 0903ms total)
T157C 001:377 JLINK_SetBPEx(Addr = 0x20000000, Type = 0xFFFFFFF2)  returns 0x0000000D (0000ms, 0903ms total)
T157C 001:377 JLINK_Go() -- CPU_ReadMem(4 bytes @ 0xE0001000) (0004ms, 0907ms total)
T157C 001:381 JLINK_IsHalted()  returns FALSE (0000ms, 0907ms total)
T157C 001:391 JLINK_IsHalted()  returns FALSE (0000ms, 0907ms total)
T157C 001:392 JLINK_IsHalted()  returns FALSE (0000ms, 0907ms total)
T157C 001:393 JLINK_IsHalted()  returns FALSE (0000ms, 0907ms total)
T157C 001:394 JLINK_IsHalted()  returns FALSE (0000ms, 0907ms total)
T157C 001:395 JLINK_IsHalted()  returns FALSE (0000ms, 0907ms total)
T157C 001:396 JLINK_IsHalted()  returns FALSE (0000ms, 0907ms total)
T157C 001:397 JLINK_IsHalted()  returns FALSE (0000ms, 0907ms total)
T157C 001:398 JLINK_IsHalted()  returns FALSE (0000ms, 0907ms total)
T157C 001:399 JLINK_IsHalted()  returns FALSE (0000ms, 0907ms total)
T157C 001:400 JLINK_IsHalted()  returns FALSE (0000ms, 0907ms total)
T157C 001:401 JLINK_IsHalted()  returns FALSE (0000ms, 0907ms total)
T157C 001:402 JLINK_IsHalted()  returns FALSE (0000ms, 0907ms total)
T157C 001:403 JLINK_IsHalted()  returns FALSE (0000ms, 0907ms total)
T157C 001:404 JLINK_IsHalted()  returns FALSE (0000ms, 0907ms total)
T157C 001:405 JLINK_IsHalted()  returns FALSE (0000ms, 0907ms total)
T157C 001:406 JLINK_IsHalted()  returns FALSE (0000ms, 0907ms total)
T157C 001:407 JLINK_IsHalted()  returns FALSE (0000ms, 0907ms total)
T157C 001:408 JLINK_IsHalted()  returns FALSE (0000ms, 0907ms total)
T157C 001:409 JLINK_IsHalted()  returns FALSE (0000ms, 0907ms total)
T157C 001:410 JLINK_IsHalted()  returns FALSE (0000ms, 0907ms total)
T157C 001:411 JLINK_IsHalted()  returns FALSE (0000ms, 0907ms total)
T157C 001:412 JLINK_IsHalted()  returns FALSE (0000ms, 0907ms total)
T157C 001:413 JLINK_IsHalted()  returns FALSE (0000ms, 0907ms total)
T157C 001:414 JLINK_IsHalted()  returns FALSE (0000ms, 0907ms total)
T157C 001:415 JLINK_IsHalted()  returns FALSE (0000ms, 0907ms total)
T157C 001:416 JLINK_IsHalted()  returns FALSE (0000ms, 0907ms total)
T157C 001:417 JLINK_IsHalted()  returns FALSE (0000ms, 0907ms total)
T157C 001:418 JLINK_IsHalted()  returns FALSE (0000ms, 0907ms total)
T157C 001:419 JLINK_IsHalted()  returns FALSE (0000ms, 0907ms total)
T157C 001:420 JLINK_IsHalted()  returns FALSE (0000ms, 0907ms total)
T157C 001:421 JLINK_IsHalted()  returns FALSE (0000ms, 0907ms total)
T157C 001:422 JLINK_IsHalted()  returns FALSE (0000ms, 0907ms total)
T157C 001:423 JLINK_IsHalted()  returns FALSE (0000ms, 0907ms total)
T157C 001:424 JLINK_IsHalted()  returns FALSE (0000ms, 0907ms total)
T157C 001:425 JLINK_IsHalted()  returns FALSE (0000ms, 0907ms total)
T157C 001:426 JLINK_IsHalted()  returns FALSE (0000ms, 0907ms total)
T157C 001:427 JLINK_IsHalted()  returns FALSE (0000ms, 0907ms total)
T157C 001:428 JLINK_IsHalted()  returns FALSE (0000ms, 0907ms total)
T157C 001:429 JLINK_IsHalted()  returns FALSE (0000ms, 0907ms total)
T157C 001:430 JLINK_IsHalted()  returns FALSE (0000ms, 0907ms total)
T157C 001:434 JLINK_IsHalted()  returns FALSE (0000ms, 0907ms total)
T157C 001:435 JLINK_IsHalted()  returns FALSE (0000ms, 0907ms total)
T157C 001:436 JLINK_IsHalted()  returns FALSE (0000ms, 0907ms total)
T157C 001:437 JLINK_IsHalted()  returns FALSE (0000ms, 0907ms total)
T157C 001:438 JLINK_IsHalted()  returns FALSE (0000ms, 0907ms total)
